
**** 12/08/22 10:11:18 ******* PSpice 17.4.0 (Nov 2018) ******* ID# 0 ********

 ** Profile: "SCHEMATIC1-Ex1_BiasPoint"  [ C:\00_Disk_D\00_HCMUT\Subject\221\EDC\Lab2\EDC Lab 2-PSpiceFiles\SCHEMATIC1\Ex1_BiasPoint.


 ****     CIRCUIT DESCRIPTION


******************************************************************************




** Creating circuit file "Ex1_BiasPoint.cir" 
** WARNING: THIS AUTOMATICALLY GENERATED FILE MAY BE OVERWRITTEN BY SUBSEQUENT SIMULATIONS

*Libraries: 
* Profile Libraries :
* Local Libraries :
* From [PSPICE NETLIST] section of C:\cds_spb_home\cdssetup\OrCAD_PSpiceTIPSpice_Install\17.4.0\PSpice.ini file:
.lib "nom_pspti.lib" 
.lib "nom.lib" 

*Analysis directives: 
.OPTIONS ADVCONV
.OPTIONS FILEMODELSEARCH
.PROBE64 V(alias(*)) I(alias(*)) W(alias(*)) D(alias(*)) NOISE(alias(*)) 
.INC "..\SCHEMATIC1.net" 



**** INCLUDING SCHEMATIC1.net ****
* source EDC LAB 2
R_R1         N00149 N00130  220 TC=0,0 
D_D1         N00130 0 Dbreak 
V_V1         N00149 0 5Vdc

**** RESUMING Ex1_BiasPoint.cir ****
.END

**** 12/08/22 10:11:18 ******* PSpice 17.4.0 (Nov 2018) ******* ID# 0 ********

 ** Profile: "SCHEMATIC1-Ex1_BiasPoint"  [ C:\00_Disk_D\00_HCMUT\Subject\221\EDC\Lab2\EDC Lab 2-PSpiceFiles\SCHEMATIC1\Ex1_BiasPoint.


 ****     SMALL SIGNAL BIAS SOLUTION       TEMPERATURE =   27.000 DEG C


******************************************************************************



 NODE   VOLTAGE     NODE   VOLTAGE     NODE   VOLTAGE     NODE   VOLTAGE


(N00130)     .7337 (N00149)    5.0000 




    VOLTAGE SOURCE CURRENTS
    NAME         CURRENT

    V_V1        -1.939E-02

    TOTAL POWER DISSIPATION   9.70E-02  WATTS



          JOB CONCLUDED

**** 12/08/22 10:11:18 ******* PSpice 17.4.0 (Nov 2018) ******* ID# 0 ********

 ** Profile: "SCHEMATIC1-Ex1_BiasPoint"  [ C:\00_Disk_D\00_HCMUT\Subject\221\EDC\Lab2\EDC Lab 2-PSpiceFiles\SCHEMATIC1\Ex1_BiasPoint.


 ****     JOB STATISTICS SUMMARY


******************************************************************************



  License check-out time            =       30.39
  Total job time (using Solver 1)   =         .38
