
**** 12/08/22 12:15:01 ******* PSpice 17.4.0 (Nov 2018) ******* ID# 0 ********

 ** Profile: "Ex1-BiasPoint"  [ C:\00_Disk_D\00_HCMUT\Subject\221\EDC\Lab2\EDC Lab 2-PSpiceFiles\Ex1\BiasPoint.sim ] 


 ****     CIRCUIT DESCRIPTION


******************************************************************************




** Creating circuit file "BiasPoint.cir" 
** WARNING: THIS AUTOMATICALLY GENERATED FILE MAY BE OVERWRITTEN BY SUBSEQUENT SIMULATIONS

*Libraries: 
* Profile Libraries :
* Local Libraries :
* From [PSPICE NETLIST] section of C:\cds_spb_home\cdssetup\OrCAD_PSpiceTIPSpice_Install\17.4.0\PSpice.ini file:
.lib "nom_pspti.lib" 
.lib "nom.lib" 

*Analysis directives: 
.OPTIONS ADVCONV
.OPTIONS FILEMODELSEARCH
.PROBE64 V(alias(*)) I(alias(*)) W(alias(*)) D(alias(*)) NOISE(alias(*)) 
.INC "..\Ex1.net" 



**** INCLUDING Ex1.net ****
* source EDC LAB 2
D_D1         N00143 0 Dbreak 
V_V1         N00122 0 5Vdc
R_R2         N00143 N00134  50 TC=0,0 
R_R1         N00122 N00134  1500 TC=0,0 

**** RESUMING BiasPoint.cir ****
.END

**** 12/08/22 12:15:01 ******* PSpice 17.4.0 (Nov 2018) ******* ID# 0 ********

 ** Profile: "Ex1-BiasPoint"  [ C:\00_Disk_D\00_HCMUT\Subject\221\EDC\Lab2\EDC Lab 2-PSpiceFiles\Ex1\BiasPoint.sim ] 


 ****     SMALL SIGNAL BIAS SOLUTION       TEMPERATURE =   27.000 DEG C


******************************************************************************



 NODE   VOLTAGE     NODE   VOLTAGE     NODE   VOLTAGE     NODE   VOLTAGE


(N00122)    5.0000 (N00134)     .8212 (N00143)     .6819 




    VOLTAGE SOURCE CURRENTS
    NAME         CURRENT

    V_V1        -2.786E-03

    TOTAL POWER DISSIPATION   1.39E-02  WATTS



          JOB CONCLUDED

**** 12/08/22 12:15:01 ******* PSpice 17.4.0 (Nov 2018) ******* ID# 0 ********

 ** Profile: "Ex1-BiasPoint"  [ C:\00_Disk_D\00_HCMUT\Subject\221\EDC\Lab2\EDC Lab 2-PSpiceFiles\Ex1\BiasPoint.sim ] 


 ****     JOB STATISTICS SUMMARY


******************************************************************************



  License check-out time            =         .56
  Total job time (using Solver 1)   =         .39
